!Agilent Technologies,N5244A,MY52441742,A.10.20.02
!Agilent N5244A: A.10.20.02
!Date: Friday, December 11, 2020 09:46:25
!Correction: S11(Full 2 Port(1,2)) 
!S21(Full 2 Port(1,2)) 
!S12(Full 2 Port(1,2)) 
!S22(Full 2 Port(1,2)) 
!S2P File: Measurements: S11, S21, S12, S22:
# Hz S  dB   R 50
10000000 -0.021547135 -5.4117322 -70.402695 -127.98083 -57.410461 150.31961 -41.078918 15.158898
24950000 0.0089081395 -12.703024 -64.038918 -135.69188 -67.651703 130.50293 -14.375067 -77.414085
39900000 0.042424094 -19.467995 -59.946533 -115.97949 -56.583275 -126.08703 -12.366829 -81.735054
54850000 0.062453929 -26.03957 -52.950844 -103.7121 -50.694439 -112.14875 -11.7008 -90.242905
69800000 0.055188037 -32.942764 -47.678604 -125.31806 -48.431713 -121.31073 -11.447694 -101.8791
84750000 0.054062709 -40.117626 -42.259605 -125.07642 -42.648323 -121.75182 -11.426988 -115.78342
99700000 0.047695257 -47.889759 -38.430176 -134.03928 -38.480656 -133.64848 -11.484775 -132.24594
114650000 0.036383986 -56.267231 -34.873604 -137.70122 -34.99987 -140.10768 -11.557434 -150.78244
129600000 0.011576469 -65.262482 -31.800901 -144.69386 -31.972082 -144.17433 -11.539774 -170.33289
144550000 -0.084667131 -74.89373 -29.102112 -148.29366 -29.083025 -147.93031 -11.632883 169.82893
159500000 -0.13299938 -84.818672 -26.340548 -150.29129 -26.348257 -150.28113 -11.698255 150.03125
174450000 -0.14503324 -95.623474 -23.223406 -153.27583 -23.274023 -153.46667 -11.855626 128.6769
189400000 -0.21957639 -107.07565 -20.023468 -156.8049 -19.998032 -156.89885 -12.401639 104.17982
204350000 -0.35440981 -119.09071 -16.498167 -163.21211 -16.518953 -163.15305 -13.370492 73.448639
219300000 -0.62699354 -131.38614 -12.963058 -173.29739 -12.95878 -173.29602 -14.384474 29.344212
234250000 -1.134276 -143.62247 -9.629528 171.8046 -9.6135006 171.76788 -13.356575 -29.110537
249200000 -1.9201586 -154.46799 -6.8738432 152.43959 -6.8511295 152.438 -10.085032 -81.501503
264150000 -2.8255563 -162.4462 -5.0208707 130.97714 -5.0086107 131.06976 -7.2681484 -121.61233
279100000 -3.4378977 -168.05049 -4.0465646 110.76038 -4.0371246 110.78257 -5.6630778 -152.73946
294050000 -3.7868397 -173.60861 -3.6720302 94.127968 -3.6763351 94.022987 -4.9719257 -177.48253
309000000 -4.1251903 179.77769 -3.4839406 81.151688 -3.497426 81.158401 -4.8193736 163.41168
323950000 -4.6299443 173.32442 -3.2713795 70.657951 -3.2675202 70.611176 -4.9114327 147.87727
338900000 -5.1257796 169.13643 -2.9030516 61.067997 -2.8960185 60.999165 -5.1003113 135.25685
353850000 -5.2760344 164.79472 -2.5545838 51.515526 -2.5586898 51.414677 -5.287262 124.22065
368800000 -5.3877416 158.74876 -2.2999945 42.43576 -2.2821419 42.457279 -5.5285606 113.78347
383750000 -5.6801047 151.7218 -2.0800939 33.934368 -2.0788829 33.885208 -5.8058319 103.98589
398700000 -6.1492844 144.47194 -1.9156309 25.929247 -1.9157453 25.908602 -6.1192002 94.858955
413650000 -6.8403611 138.25618 -1.8026963 18.294714 -1.7926717 18.322168 -6.3899279 85.953133
428600000 -7.379847 133.7834 -1.6860093 11.425142 -1.6888977 11.494395 -6.6818271 77.267418
443550000 -7.6725907 128.505 -1.5568225 4.925396 -1.5479505 4.9316769 -7.0404768 68.60305
458500000 -7.9731822 122.63658 -1.3795532 -1.5852584 -1.3820802 -1.5887256 -7.4631729 60.46949
473450000 -8.2726851 116.30338 -1.2184222 -8.1506367 -1.2123606 -8.1258564 -7.9072104 53.076229
488400000 -8.5800848 109.6269 -1.0893739 -14.769608 -1.0797974 -14.7136 -8.3148918 46.140968
503350000 -8.9596739 102.78778 -0.98156089 -21.214977 -0.97799253 -21.229063 -8.6853323 39.393627
518300000 -9.3675375 96.077858 -0.89507943 -27.585522 -0.88101697 -27.592131 -9.0886974 32.843777
533250000 -9.8033066 89.474876 -0.82174116 -33.78624 -0.80365485 -33.850594 -9.465683 26.385656
548200000 -10.232183 83.050079 -0.75849921 -39.899956 -0.75968575 -39.901886 -9.8590698 20.18224
563150000 -10.660448 76.597847 -0.71632588 -45.908871 -0.71171558 -45.889038 -10.262274 14.324114
578100000 -11.133736 70.396584 -0.68578041 -51.733154 -0.67223388 -51.780468 -10.666735 8.5608978
593050000 -11.617974 65.165657 -0.65950114 -57.524174 -0.65190786 -57.507965 -11.104432 2.9815378
608000000 -11.99412 60.342262 -0.66746831 -63.062496 -0.66412038 -63.04887 -11.579535 -1.3728079
622950000 -12.380507 55.345078 -0.65669823 -68.247879 -0.65404272 -68.226852 -11.829953 -5.8871298
637900000 -12.744329 50.446304 -0.61503112 -73.345879 -0.61327541 -73.343216 -12.092924 -11.490352
652850000 -13.067172 45.59948 -0.57430065 -78.445313 -0.56942123 -78.479301 -12.371054 -17.701914
667800000 -13.43118 40.421841 -0.53308827 -83.504036 -0.51957643 -83.544014 -12.746625 -23.904345
682750000 -13.862348 35.285378 -0.48693013 -88.549896 -0.47204044 -88.592888 -13.157136 -30.073486
697700000 -14.314394 30.698515 -0.44061217 -93.624832 -0.43688816 -93.575478 -13.592938 -35.739758
712650000 -14.784317 26.284632 -0.41012514 -98.520096 -0.40777627 -98.588142 -14.075786 -41.566967
727600000 -15.230289 22.328194 -0.39618543 -103.51019 -0.39297783 -103.54589 -14.524017 -46.922569
742550000 -15.720906 19.439491 -0.39543524 -108.33942 -0.38490459 -108.38259 -15.015724 -52.537533
757500000 -15.982889 17.15983 -0.41087607 -113.05311 -0.40410158 -113.10246 -15.495075 -57.054005
772450000 -16.300747 14.20691 -0.41213661 -117.49545 -0.4058629 -117.54108 -15.814984 -61.639889
787400000 -16.585367 11.599711 -0.38676807 -121.95251 -0.37807387 -121.98162 -16.096312 -67.663193
802350000 -16.746778 9.1609821 -0.36855844 -126.42696 -0.35718489 -126.45162 -16.452702 -73.876259
817300000 -16.901033 6.8594422 -0.34578487 -130.89183 -0.34213054 -130.92044 -16.729733 -80.38398
832250000 -17.040342 3.975168 -0.335177 -135.35124 -0.32170725 -135.35011 -17.107332 -86.796043
847200000 -17.108418 1.5121948 -0.31333554 -139.8125 -0.30666238 -139.83725 -17.439606 -93.241508
862150000 -17.184683 -0.68174183 -0.31078714 -144.25743 -0.29539204 -144.30055 -17.741207 -99.487976
877100000 -17.202473 -3.008363 -0.30576304 -148.64548 -0.29470715 -148.69029 -18.015608 -105.81678
892050000 -17.202923 -5.0603004 -0.30559087 -153.05994 -0.29759443 -153.05568 -18.308729 -111.95207
907000000 -17.087564 -6.9915972 -0.31913021 -157.39706 -0.3134982 -157.41005 -18.405418 -118.72816
921950000 -17.064032 -9.6820898 -0.33434156 -161.50417 -0.32250726 -161.54083 -18.550449 -126.35513
936900000 -16.98554 -11.842661 -0.31048882 -165.61017 -0.3052915 -165.62135 -18.641062 -133.88594
951850000 -16.859865 -14.817445 -0.29121956 -169.89507 -0.29060665 -169.93869 -18.685949 -140.67503
966800000 -16.781452 -17.468014 -0.28828818 -174.12364 -0.27873161 -174.21051 -18.719126 -147.16046
981750000 -16.620832 -20.100029 -0.29309201 -178.40211 -0.28160614 -178.3847 -18.65151 -153.49136
996700000 -16.46316 -22.562399 -0.2962746 177.44316 -0.28972387 177.41293 -18.53492 -159.60265
1011650000 -16.3377 -25.486771 -0.30363196 173.24825 -0.29272696 173.25639 -18.438238 -165.29242
1026600000 -16.121721 -28.422836 -0.30850583 169.11266 -0.29951602 169.15155 -18.227674 -171.68008
1041550000 -15.929841 -31.354052 -0.31921166 165.021 -0.31710076 165.03444 -17.925667 -177.22993
1056500000 -15.892174 -34.123512 -0.34151703 160.98604 -0.33219299 160.95139 -17.606724 176.7692
1071450000 -15.791263 -36.715977 -0.3574647 157.07317 -0.35775256 157.01715 -17.225096 170.69849
1086400000 -15.610292 -38.720371 -0.35733435 153.18314 -0.34471217 153.16823 -17.019474 164.44505
1101350000 -15.300248 -41.87743 -0.34342948 149.20107 -0.34160215 149.1767 -16.839785 159.35388
1116300000 -15.088471 -45.081795 -0.34476301 145.17363 -0.333736 145.17557 -16.632477 154.45755
1131250000 -14.867593 -48.822166 -0.35515878 141.15012 -0.34230688 141.12396 -16.352045 150.09573
1146200000 -14.696878 -51.791546 -0.36090076 137.21878 -0.34766856 137.18909 -16.140085 145.31453
1161150000 -14.515655 -55.208504 -0.36956951 133.27626 -0.35770327 133.23573 -15.864101 140.65396
1176100000 -14.360997 -58.275265 -0.38090235 129.34523 -0.368763 129.30574 -15.594563 136.11153
1191050000 -14.212511 -61.547825 -0.3915579 125.47287 -0.38675356 125.41756 -15.359386 131.42847
1206000000 -14.1371 -64.84137 -0.40819055 121.62571 -0.39760837 121.54236 -15.068462 126.69225
1220950000 -14.084426 -67.843643 -0.43191823 117.78651 -0.41809162 117.79659 -14.781974 122.11263
1235900000 -13.932425 -70.399788 -0.42696446 114.09781 -0.41839123 114.08407 -14.621865 117.54877
1250850000 -13.669724 -73.388535 -0.42502606 110.32693 -0.40964165 110.26432 -14.464791 113.32588
1265800000 -13.495606 -77.136589 -0.41895455 106.40372 -0.41305643 106.39799 -14.284503 109.68492
1280750000 -13.333948 -80.664612 -0.4262369 102.58755 -0.41971353 102.54148 -14.097821 105.19925
1295700000 -13.230577 -84.248825 -0.43933183 98.751068 -0.43168479 98.74015 -13.896539 101.07179
1310650000 -13.104474 -87.84922 -0.44924551 94.968155 -0.43945763 94.942093 -13.727101 96.762611
1325600000 -13.044582 -91.089043 -0.45702541 91.177902 -0.45322806 91.182251 -13.553306 92.622505
1340550000 -13.019076 -94.702774 -0.46788174 87.430931 -0.46381468 87.391052 -13.369893 88.450768
1355500000 -12.977952 -98.124466 -0.48622304 83.700005 -0.47754014 83.655487 -13.211805 84.219536
1370450000 -12.985312 -101.57071 -0.49486372 80.012062 -0.48738945 80.000473 -13.076195 80.083229
1385400000 -12.962598 -104.38753 -0.50556099 76.37709 -0.49269447 76.377693 -12.995193 76.21476
1400350000 -12.887712 -107.86617 -0.49332431 72.67334 -0.47964641 72.634262 -12.849699 72.527931
1415300000 -12.808543 -111.03349 -0.49149123 68.946609 -0.48453501 68.901245 -12.723921 68.679268
1430250000 -12.81736 -114.60122 -0.49115792 65.193176 -0.48856598 65.188271 -12.58855 64.353302
1445200000 -12.813093 -117.74142 -0.5016011 61.490372 -0.49324161 61.448643 -12.53096 60.062382
1460150000 -12.838944 -121.16434 -0.50432998 57.787178 -0.49378344 57.773613 -12.471987 56.146408
1475100000 -12.862235 -124.24107 -0.5136283 54.124599 -0.4989416 54.070976 -12.390963 52.001209
1490050000 -12.925277 -127.47912 -0.51214421 50.426666 -0.50459886 50.412933 -12.359223 47.781307
1505000000 -12.999927 -130.71669 -0.51962656 46.755802 -0.51094615 46.663464 -12.332839 43.918964
1519950000 -13.04179 -133.91766 -0.5252915 43.098087 -0.51313692 43.09708 -12.37689 39.881493
1534900000 -13.066365 -136.98158 -0.53498387 39.523338 -0.52125704 39.47448 -12.40764 36.242096
1549850000 -13.120316 -140.20627 -0.52261585 35.916397 -0.51316506 35.888275 -12.416066 32.596947
1564800000 -13.201325 -143.1694 -0.50710011 32.223999 -0.50374681 32.230999 -12.404675 28.098616
1579750000 -13.270006 -146.11369 -0.50413471 28.510145 -0.49651253 28.485485 -12.441702 24.10845
1594700000 -13.362981 -148.98607 -0.50531447 24.879856 -0.5032559 24.858934 -12.509776 19.474899
1609650000 -13.463863 -152.12836 -0.50204796 21.190193 -0.48815507 21.178116 -12.56128 15.342311
1624600000 -13.571739 -155.18666 -0.49691704 17.519098 -0.4944689 17.50931 -12.666547 11.177532
1639550000 -13.698885 -157.95499 -0.49904087 13.91449 -0.48786658 13.848318 -12.768674 6.6029077
1654500000 -13.819333 -160.73878 -0.49996728 10.213938 -0.49225727 10.195712 -12.915088 2.2514696
1669450000 -13.948453 -163.46278 -0.50168395 6.5553179 -0.49323174 6.5573201 -13.075471 -1.991838
1684400000 -14.044467 -166.38765 -0.50434041 2.9659183 -0.49056008 2.9214532 -13.283444 -6.3120475
1699350000 -14.20487 -169.52483 -0.49238092 -0.64572644 -0.48336598 -0.60967761 -13.419908 -10.539788
1714300000 -14.421658 -171.69804 -0.48067066 -4.3233013 -0.46998489 -4.330339 -13.524843 -15.55758
1729250000 -14.625454 -173.93817 -0.46872461 -8.0467272 -0.46268466 -8.02071 -13.701466 -20.864826
1744200000 -14.82426 -176.05353 -0.47300717 -11.707769 -0.45801091 -11.728318 -13.872969 -26.159966
1759150000 -15.005678 -177.90141 -0.46285045 -15.411612 -0.44963452 -15.42295 -14.06153 -31.511133
1774100000 -15.22555 -179.81819 -0.46227992 -19.128931 -0.44959021 -19.153425 -14.277085 -36.56422
1789050000 -15.413788 178.30371 -0.45828155 -22.809151 -0.44797438 -22.872238 -14.468086 -42.014229
1804000000 -15.616179 176.72252 -0.45162031 -26.551418 -0.45104632 -26.595583 -14.702324 -47.421356
1818950000 -15.829204 175.37746 -0.45286709 -30.276497 -0.44490281 -30.341436 -14.910986 -53.204304
1833900000 -15.902133 173.75967 -0.45832074 -33.987221 -0.44730267 -33.997883 -15.24133 -59.23526
1848850000 -16.140654 172.96272 -0.45943913 -37.706596 -0.44027537 -37.76363 -15.386322 -64.571754
1863800000 -16.352867 172.00575 -0.43802077 -41.461838 -0.43461347 -41.470047 -15.596425 -71.420929
1878750000 -16.49666 171.88704 -0.43438026 -45.27618 -0.4209798 -45.302238 -15.806089 -78.046234
1893700000 -16.601875 171.8037 -0.43757239 -49.124866 -0.42364952 -49.183868 -16.000921 -84.794876
1908650000 -16.700609 171.98772 -0.43941331 -52.959576 -0.42830393 -53.031162 -16.137518 -92.107155
1923600000 -16.703867 172.20715 -0.44483143 -56.905029 -0.43662545 -56.863651 -16.292601 -99.546928
1938550000 -16.622519 172.24158 -0.45256069 -60.791718 -0.44840419 -60.802258 -16.364992 -107.3794
1953500000 -16.504601 172.47525 -0.46608537 -64.668663 -0.45312068 -64.687714 -16.435171 -115.85292
1968450000 -16.264494 172.27396 -0.47631401 -68.640015 -0.46804696 -68.670586 -16.402571 -124.14503
1983400000 -15.961337 172.78012 -0.49768135 -72.67308 -0.48998389 -72.687408 -16.21294 -133.23976
1998350000 -15.617273 172.46051 -0.51454961 -76.698807 -0.50533032 -76.714127 -15.961946 -142.11121
2013300000 -15.113351 172.36453 -0.53105587 -80.829498 -0.52132183 -80.827568 -15.627376 -151.5773
2028250000 -14.578851 171.52354 -0.56051582 -85.145744 -0.55091512 -85.121147 -15.176343 -160.56384
2043200000 -13.976151 170.53233 -0.59840262 -89.495659 -0.59010893 -89.547417 -14.601969 -169.98631
2058150000 -13.248652 168.81674 -0.66254759 -94.135567 -0.64806151 -94.185303 -13.869822 -178.8902
2073100000 -12.381408 166.38155 -0.7419641 -98.97374 -0.73994225 -99.007202 -13.027787 171.82312
2088050000 -11.377687 162.93048 -0.86655444 -104.1908 -0.86333615 -104.21407 -11.999323 162.25815
2103000000 -10.213343 158.36404 -1.0742873 -109.98803 -1.0630205 -110.02715 -10.763165 152.32614
2117950000 -8.8247156 152.1022 -1.4238302 -116.67056 -1.4126225 -116.70628 -9.3139782 141.40205
2132900000 -7.1518383 142.75058 -2.1195965 -124.71061 -2.11042 -124.71904 -7.6011562 127.79543
2147850000 -5.230979 127.7014 -3.773484 -134.05746 -3.7572279 -134.06348 -5.6441045 109.34886
2162800000 -3.6084483 102.51575 -8.2011948 -133.99103 -8.1818466 -134.05969 -4.0054688 81.451218
2177750000 -3.9879203 68.103363 -8.0541964 -84.291512 -8.0599394 -84.362999 -4.3548493 44.941154
2192700000 -6.8224196 39.25843 -3.2307901 -86.351204 -3.2302628 -86.323456 -7.1514344 14.428386
2207650000 -10.392673 21.210285 -1.5881199 -97.82312 -1.5843246 -97.802635 -10.705637 -4.4686103
2222600000 -13.970013 9.6903696 -0.98366553 -106.9357 -0.97423887 -106.96667 -14.301418 -16.091904
2237550000 -17.525444 2.1054621 -0.71957701 -114.18561 -0.7151674 -114.23004 -17.969812 -22.956173
2252500000 -21.483442 -3.5764902 -0.59635532 -120.30213 -0.59236681 -120.28501 -21.986395 -25.160891
2267450000 -26.169851 -6.2985826 -0.54010159 -125.67535 -0.52363491 -125.72862 -26.84383 -22.143311
2282400000 -33.499599 -5.3136129 -0.50564092 -130.62979 -0.49402016 -130.6662 -32.77681 1.3072894
2297350000 -45.731255 97.377533 -0.49147457 -135.25861 -0.48186901 -135.27063 -33.995754 60.545795
2312300000 -32.645374 138.20332 -0.47806802 -139.60146 -0.4740552 -139.67596 -29.463865 86.669052
2327250000 -28.186674 138.51053 -0.47121194 -143.88458 -0.45807821 -143.89397 -26.355873 92.707962
2342200000 -25.804537 135.18907 -0.4660058 -148.02573 -0.46421313 -148.08337 -24.323406 92.365288
2357150000 -24.00577 131.44643 -0.47536999 -152.0939 -0.46743384 -152.15765 -22.709846 90.475327
2372100000 -22.634798 127.31758 -0.49151316 -156.15353 -0.47588751 -156.15756 -21.393721 88.675903
2387050000 -21.615635 122.40825 -0.49556497 -160.04668 -0.48531863 -160.0968 -20.440374 85.910385
2402000000 -20.749529 118.05433 -0.51338089 -163.91359 -0.49700117 -164.02081 -19.613096 83.074066
2416950000 -20.009544 113.5402 -0.52562302 -167.79419 -0.51168466 -167.83821 -18.920393 80.707207
2431900000 -19.271389 108.9656 -0.54112113 -171.62306 -0.52783203 -171.68135 -18.381832 78.262444
2446850000 -18.726547 104.90755 -0.55524117 -175.3638 -0.53922123 -175.42636 -17.870535 75.300697
2461800000 -18.241573 100.53111 -0.55810487 -179.10634 -0.54342103 -179.18289 -17.412752 73.38884
2476750000 -17.758707 95.030014 -0.56379253 177.14336 -0.55483133 177.10423 -16.980421 70.976509
2491700000 -17.285782 89.776222 -0.57593459 173.41653 -0.55518746 173.31935 -16.586771 68.459648
2506650000 -16.890417 84.057159 -0.57777154 169.5943 -0.57357752 169.52522 -16.158314 65.746857
2521600000 -16.536482 78.255112 -0.59567791 165.80763 -0.58911705 165.79149 -15.779497 63.1189
2536550000 -16.237564 72.605728 -0.61204475 162.08917 -0.60119992 162.05682 -15.485836 60.841408
2551500000 -15.895231 67.084465 -0.63226825 158.32263 -0.62152803 158.27339 -15.103368 58.433716
2566450000 -15.547945 61.493992 -0.64731717 154.62233 -0.63936305 154.58058 -14.828201 56.092796
2581400000 -15.230874 55.478546 -0.67072779 150.87462 -0.65979928 150.853 -14.528872 53.943752
2596350000 -14.954863 49.729164 -0.69320381 147.18306 -0.685027 147.11928 -14.245039 51.88324
2611300000 -14.716008 43.659084 -0.72059113 143.47571 -0.70738542 143.38937 -13.990612 50.060791
2626250000 -14.426501 37.603092 -0.74048841 139.72774 -0.72854137 139.69652 -13.701402 48.0695
2641200000 -14.128325 31.785187 -0.75808871 135.95802 -0.74477768 135.90103 -13.423692 45.769588
2656150000 -13.813846 25.586952 -0.78586155 132.16081 -0.77910918 132.16359 -13.078299 43.783939
2671100000 -13.487741 19.361748 -0.8215096 128.35016 -0.81354415 128.34103 -12.78665 41.535759
2686050000 -13.198943 13.354538 -0.85572296 124.59582 -0.84614599 124.53413 -12.494058 39.295414
2701000000 -12.829374 7.3903689 -0.90044415 120.73672 -0.88980883 120.71149 -12.199203 37.048096
2715950000 -12.490475 0.96520561 -0.95274669 116.93465 -0.93236309 116.8431 -11.899961 35.082508
2730900000 -12.202111 -4.9882164 -0.99805284 113.07542 -0.99609303 113.0096 -11.556239 32.39967
2745850000 -11.828697 -11.557658 -1.0742403 109.21606 -1.0634381 109.18048 -11.264918 29.802885
2760800000 -11.463512 -17.988825 -1.1511229 105.35265 -1.1488966 105.28629 -10.962264 27.022459
2775750000 -11.108131 -24.68572 -1.2420299 101.44894 -1.2276617 101.43424 -10.615131 24.211109
2790700000 -10.715752 -31.225075 -1.3403299 97.581825 -1.3337948 97.525803 -10.276907 20.862152
2805650000 -10.303073 -37.956093 -1.4685127 93.626732 -1.4668938 93.563118 -9.9237471 17.275782
2820600000 -9.8912888 -45.013718 -1.6361341 89.708221 -1.6336087 89.661705 -9.5554724 13.342212
2835550000 -9.4872856 -52.235477 -1.8487973 85.857162 -1.831182 85.818451 -9.190505 8.8753891
2850500000 -9.1162062 -59.868042 -2.0931492 82.175926 -2.0782049 82.102478 -8.8585711 3.8612301
2865450000 -8.7693663 -68.169243 -2.4033341 78.741737 -2.3932996 78.713844 -8.5733681 -2.0234189
2880400000 -8.4871397 -77.184372 -2.7819815 75.915146 -2.7786479 75.857178 -8.3434525 -8.7076273
2895350000 -8.2898197 -86.817833 -3.2114749 73.922363 -3.199333 73.852783 -8.2539206 -16.467861
2910300000 -8.2697086 -97.318481 -3.6152451 73.321495 -3.6053963 73.269485 -8.3648539 -25.221748
2925250000 -8.536603 -108.23218 -3.8573215 74.236633 -3.8473995 74.145088 -8.7539253 -34.756161
2940200000 -9.1626549 -118.93119 -3.7789195 75.734383 -3.7717152 75.677109 -9.5864801 -44.414082
2955150000 -10.21482 -128.35385 -3.3666105 76.409538 -3.3639364 76.364357 -10.893858 -52.822052
2970100000 -11.591921 -134.79234 -2.7996862 75.189049 -2.7920609 75.156883 -12.695848 -58.408527
2985050000 -13.151651 -137.57227 -2.2646699 72.312805 -2.2460103 72.206947 -14.87279 -59.353218
3000000000 -14.54112 -136.0041 -1.8279332 68.330009 -1.8197519 68.260445 -17.024035 -53.735348
